Circuit: * C:\Users\Acer\Desktop\IC\Dflipflop\FFsim.asc

Ignoring BSIM parameter XL
Ignoring BSIM parameter XW
Ignoring BSIM parameter XL
Ignoring BSIM parameter XW
Warning: Pd = 0 is less than W.
Warning: Ps = 0 is less than W.
Warning: Pd = 0 is less than W.
Warning: Ps = 0 is less than W.
Direct Newton iteration for .op point succeeded.
Semiconductor Device Operating Points:
                        --- BSIM3 MOSFETS ---
Name:     m:x1:x1:3   m:x1:x1:4   m:x1:x2:3   m:x1:x2:4   m:x1:x3:3
Model:      cmosn       cmosn       cmosn       cmosn       cmosn
Id:        8.20e-12    8.20e-12    3.81e-11    3.81e-11    3.90e-05
Vgs:      -6.19e-02    0.00e+00   -7.62e-08    1.00e+00    1.12e+00
Vds:       1.74e+00    6.19e-02    1.80e+00    7.62e-08    7.21e-02
Vbs:       0.00e+00    0.00e+00    0.00e+00    0.00e+00    0.00e+00
Vth:       4.16e-01    4.33e-01    4.16e-01    4.34e-01    4.33e-01
Vdsat:     3.71e-02    3.70e-02    3.71e-02    2.24e-01    2.43e-01
Gm:        1.76e-10    2.22e-10    9.91e-10    6.11e-11    5.14e-05
Gds:       3.91e-12    3.51e-11    2.17e-11    5.00e-04    4.89e-04
Gmb        5.94e-11    7.39e-11    3.24e-10    1.43e-11    1.20e-05
Cbd:       0.00e+00    0.00e+00    0.00e+00    0.00e+00    0.00e+00
Cbs:       0.00e+00    0.00e+00    0.00e+00    0.00e+00    0.00e+00
Cgsov:     4.24e-16    4.24e-16    4.24e-16    4.24e-16    4.24e-16
Cgdov:     4.24e-16    4.24e-16    4.24e-16    4.24e-16    4.24e-16
Cgbov:     1.46e-19    1.46e-19    1.46e-19    1.46e-19    1.46e-19
dQgdVgb:   1.03e-15    1.03e-15    1.03e-15    1.46e-15    1.45e-15
dQgdVdb:  -4.24e-16   -4.24e-16   -4.24e-16   -6.99e-16   -6.67e-16
dQgdVsb:  -4.24e-16   -4.24e-16   -4.24e-16   -7.47e-16   -7.75e-16
dQddVgb:  -4.24e-16   -4.24e-16   -4.24e-16   -7.27e-16   -7.22e-16
dQddVdb:   4.24e-16    4.24e-16    4.24e-16    7.49e-16    7.11e-16
dQddVsb:   5.85e-22    2.03e-21    3.21e-21    6.79e-17    9.50e-17
dQbdVgb:  -1.85e-16   -1.79e-16   -1.79e-16   -2.38e-18   -7.60e-18
dQbdVdb:   1.26e-24   -5.90e-23    6.35e-24   -3.74e-16   -3.31e-16
dQbdVsb:   5.98e-21    5.37e-21    5.09e-21    1.88e-16    1.61e-16

Name:     m:x1:x3:4   m:x1:x4:3   m:x1:x4:4   m:x1:x1:1   m:x1:x1:2
Model:      cmosn       cmosn       cmosn       cmosp       cmosp
Id:        3.90e-05    3.62e-05    3.62e-05   -4.10e-12   -4.10e-12
Vgs:       7.22e-01    7.09e-01    1.80e+00   -1.80e+00   -1.80e+00
Vds:       6.77e-01    6.81e-01    4.07e-02   -1.68e-08   -1.68e-08
Vbs:       0.00e+00    0.00e+00    0.00e+00    0.00e+00    0.00e+00
Vth:       4.27e-01    4.27e-01    4.34e-01   -4.77e-01   -4.77e-01
Vdsat:     1.66e-01    1.62e-01    3.50e-01   -8.61e-01   -8.61e-01
Gm:        2.15e-04    2.11e-04    1.04e-05    1.75e-12    1.75e-12
Gds:       1.02e-05    9.64e-06    8.63e-04    2.44e-04    2.44e-04
Gmb        5.19e-05    5.12e-05    4.26e-06    6.75e-13    6.75e-13
Cbd:       0.00e+00    0.00e+00    0.00e+00    0.00e+00    0.00e+00
Cbs:       0.00e+00    0.00e+00    0.00e+00    0.00e+00    0.00e+00
Cgsov:     4.24e-16    4.24e-16    4.24e-16    3.91e-16    3.91e-16
Cgdov:     4.24e-16    4.24e-16    4.24e-16    3.91e-16    3.91e-16
Cgbov:     1.46e-19    1.46e-19    1.46e-19    1.21e-19    1.21e-19
dQgdVgb:   1.37e-15    1.37e-15    1.46e-15    1.29e-15    1.29e-15
dQgdVdb:  -4.20e-16   -4.20e-16   -7.04e-16   -6.35e-16   -6.35e-16
dQgdVsb:  -9.20e-16   -9.20e-16   -7.42e-16   -6.63e-16   -6.63e-16
dQddVgb:  -6.26e-16   -6.26e-16   -7.27e-16   -6.46e-16   -6.46e-16
dQddVdb:   4.22e-16    4.22e-16    7.54e-16    6.90e-16    6.90e-16
dQddVsb:   2.64e-16    2.64e-16    5.88e-17    3.68e-17    3.68e-17
dQbdVgb:  -1.19e-16   -1.19e-16   -1.86e-18   -1.08e-18   -1.08e-18
dQbdVdb:   2.14e-20    4.45e-20   -3.80e-16   -3.55e-16   -3.55e-16
dQbdVsb:  -3.17e-17   -3.19e-17    2.00e-16    1.98e-16    1.98e-16

Name:     m:x1:x2:1   m:x1:x2:2   m:x1:x3:1   m:x1:x3:2   m:x1:x4:1
Model:      cmosp       cmosp       cmosp       cmosp       cmosp
Id:       -2.88e-11   -9.28e-12   -3.93e-12   -3.90e-05   -3.62e-05
Vgs:      -1.80e+00   -8.00e-01   -1.68e-08   -1.08e+00   -1.05e+00
Vds:      -1.18e-07   -1.18e-07   -1.05e+00   -1.05e+00   -1.08e+00
Vbs:       0.00e+00    0.00e+00    0.00e+00    0.00e+00    0.00e+00
Vth:      -4.77e-01   -4.77e-01   -4.71e-01   -4.71e-01   -4.71e-01
Vdsat:    -8.61e-01   -2.46e-01   -3.88e-02   -4.18e-01   -4.02e-01
Gm:        1.23e-11    2.85e-11    7.39e-11    1.05e-04    1.02e-04
Gds:       2.44e-04    7.85e-05    1.05e-12    4.47e-06    3.96e-06
Gmb        4.74e-12    9.52e-12    2.79e-11    3.10e-05    3.04e-05
Cbd:       0.00e+00    0.00e+00    0.00e+00    0.00e+00    0.00e+00
Cbs:       0.00e+00    0.00e+00    0.00e+00    0.00e+00    0.00e+00
Cgsov:     3.91e-16    3.91e-16    3.91e-16    3.91e-16    3.91e-16
Cgdov:     3.91e-16    3.91e-16    3.91e-16    3.91e-16    3.91e-16
Cgbov:     1.21e-19    1.21e-19    1.21e-19    1.21e-19    1.21e-19
dQgdVgb:   1.29e-15    1.29e-15    9.32e-16    1.22e-15    1.22e-15
dQgdVdb:  -6.35e-16   -6.10e-16   -3.91e-16   -3.89e-16   -3.89e-16
dQgdVsb:  -6.63e-16   -6.88e-16   -3.91e-16   -8.23e-16   -8.23e-16
dQddVgb:  -6.46e-16   -6.46e-16   -3.91e-16   -5.61e-16   -5.61e-16
dQddVdb:   6.90e-16    6.60e-16    3.91e-16    3.90e-16    3.90e-16
dQddVsb:   3.68e-17    6.66e-17    1.30e-21    2.25e-16    2.25e-16
dQbdVgb:  -1.08e-18   -2.49e-18   -1.50e-16   -1.02e-16   -1.02e-16
dQbdVdb:  -3.55e-16   -3.19e-16    1.34e-24   -5.42e-20   -2.72e-20
dQbdVsb:   1.98e-16    1.63e-16    4.66e-21   -1.75e-17   -1.78e-17

Name:     m:x1:x4:2
Model:      cmosp
Id:       -3.99e-12
Vgs:      -1.18e-07
Vds:      -1.08e+00
Vbs:       0.00e+00
Vth:      -4.71e-01
Vdsat:    -3.88e-02
Gm:        7.46e-11
Gds:       1.05e-12
Gmb        2.82e-11
Cbd:       0.00e+00
Cbs:       0.00e+00
Cgsov:     3.91e-16
Cgdov:     3.91e-16
Cgbov:     1.21e-19
dQgdVgb:   9.32e-16
dQgdVdb:  -3.91e-16
dQgdVsb:  -3.91e-16
dQddVgb:  -3.91e-16
dQddVdb:   3.91e-16
dQddVsb:   1.30e-21
dQbdVgb:  -1.50e-16
dQbdVdb:   1.34e-24
dQbdVsb:   4.66e-21



Date: Fri Mar 29 16:48:22 2024
Total elapsed time: 0.042 seconds.

tnom = 27
temp = 27
method = trap
totiter = 13
traniter = 0
tranpoints = 0
accept = 0
rejected = 0
matrix size = 15
fillins = 0
solver = Normal
Avg thread counts: 8.0/0.0/8.0/8.0
Matrix Compiler1: 1.10 KB object code size
Matrix Compiler2: 1.51 KB object code size
