Circuit: * C:\Users\Acer\Desktop\IC\CongNAND3\NAND3.asc

Ignoring BSIM parameter XL
Ignoring BSIM parameter XW
Ignoring BSIM parameter XL
Ignoring BSIM parameter XW
Warning: Pd = 0 is less than W.
Warning: Ps = 0 is less than W.
Warning: Pd = 0 is less than W.
Warning: Ps = 0 is less than W.
Direct Newton iteration for .op point succeeded.
Semiconductor Device Operating Points:
                        --- BSIM3 MOSFETS ---
Name:        m4          m5          m6          m1          m3
Model:      cmosn       cmosn       cmosn       cmosp       cmosp
Id:        4.86e-12    4.86e-12    4.86e-12   -1.62e-12   -1.62e-12
Vgs:      -8.77e-02   -2.02e-02    0.00e+00   -1.80e+00   -1.80e+00
Vds:       1.71e+00    6.75e-02    2.02e-02   -6.65e-09   -6.65e-09
Vbs:       0.00e+00    0.00e+00    0.00e+00    0.00e+00    0.00e+00
Vth:       4.17e-01    4.33e-01    4.34e-01   -4.77e-01   -4.77e-01
Vdsat:     3.71e-02    3.70e-02    3.70e-02   -8.61e-01   -8.61e-01
Gm:        8.57e-11    1.31e-10    1.32e-10    6.92e-13    6.92e-13
Gds:       1.91e-12    1.78e-11    1.63e-10    2.44e-04    2.44e-04
Gmb        2.92e-11    4.39e-11    4.44e-11    2.66e-13    2.66e-13
Cbd:       0.00e+00    0.00e+00    0.00e+00    0.00e+00    0.00e+00
Cbs:       0.00e+00    0.00e+00    0.00e+00    0.00e+00    0.00e+00
Cgsov:     4.24e-16    4.24e-16    4.24e-16    3.91e-16    3.91e-16
Cgdov:     4.24e-16    4.24e-16    4.24e-16    3.91e-16    3.91e-16
Cgbov:     1.46e-19    1.46e-19    1.46e-19    1.21e-19    1.21e-19
dQgdVgb:   1.04e-15    1.03e-15    1.03e-15    1.29e-15    1.29e-15
dQgdVdb:  -4.24e-16   -4.24e-16   -4.24e-16   -6.35e-16   -6.35e-16
dQgdVsb:  -4.24e-16   -4.24e-16   -4.24e-16   -6.63e-16   -6.63e-16
dQddVgb:  -4.24e-16   -4.24e-16   -4.24e-16   -6.46e-16   -6.46e-16
dQddVdb:   4.24e-16    4.24e-16    4.24e-16    6.90e-16    6.90e-16
dQddVsb:   2.87e-22    1.17e-21    1.93e-21    3.68e-17    3.68e-17
dQbdVgb:  -1.87e-16   -1.80e-16   -1.79e-16   -1.08e-18   -1.08e-18
dQbdVdb:   6.38e-25   -2.79e-23   -4.02e-22   -3.55e-16   -3.55e-16
dQbdVsb:   6.15e-21    5.67e-21    5.46e-21    1.98e-16    1.98e-16

Name:        m2
Model:      cmosp
Id:       -1.62e-12
Vgs:      -1.80e+00
Vds:      -6.65e-09
Vbs:       0.00e+00
Vth:      -4.77e-01
Vdsat:    -8.61e-01
Gm:        6.92e-13
Gds:       2.44e-04
Gmb        2.66e-13
Cbd:       0.00e+00
Cbs:       0.00e+00
Cgsov:     3.91e-16
Cgdov:     3.91e-16
Cgbov:     1.21e-19
dQgdVgb:   1.29e-15
dQgdVdb:  -6.35e-16
dQgdVsb:  -6.63e-16
dQddVgb:  -6.46e-16
dQddVdb:   6.90e-16
dQddVsb:   3.68e-17
dQbdVgb:  -1.08e-18
dQbdVdb:  -3.55e-16
dQbdVsb:   1.98e-16



Date: Fri Mar 29 09:11:55 2024
Total elapsed time: 0.051 seconds.

tnom = 27
temp = 27
method = trap
totiter = 29
traniter = 0
tranpoints = 0
accept = 0
rejected = 0
matrix size = 11
fillins = 0
solver = Normal
Avg thread counts: 8.0/0.0/8.0/8.0
Matrix Compiler1: 468 bytes object code size
Matrix Compiler2: 943 bytes object code size
