Circuit: * C:\Users\Acer\Desktop\IC\CongNAND\NAND.asc

Ignoring BSIM parameter XL
Ignoring BSIM parameter XW
Ignoring BSIM parameter XL
Ignoring BSIM parameter XW
Warning: Pd = 0 is less than W.
Warning: Ps = 0 is less than W.
Warning: Pd = 0 is less than W.
Warning: Ps = 0 is less than W.
Direct Newton iteration for .op point succeeded.
Semiconductor Device Operating Points:
                        --- BSIM3 MOSFETS ---
Name:        m3          m4          m1          m2
Model:      cmosn       cmosn       cmosp       cmosp
Id:        8.20e-12    8.20e-12   -4.10e-12   -4.10e-12
Vgs:      -6.19e-02    0.00e+00   -1.80e+00   -1.80e+00
Vds:       1.74e+00    6.19e-02   -1.68e-08   -1.68e-08
Vbs:       0.00e+00    0.00e+00    0.00e+00    0.00e+00
Vth:       4.16e-01    4.33e-01   -4.77e-01   -4.77e-01
Vdsat:     3.71e-02    3.70e-02   -8.61e-01   -8.61e-01
Gm:        1.76e-10    2.22e-10    1.75e-12    1.75e-12
Gds:       3.91e-12    3.51e-11    2.44e-04    2.44e-04
Gmb        5.94e-11    7.39e-11    6.75e-13    6.75e-13
Cbd:       0.00e+00    0.00e+00    0.00e+00    0.00e+00
Cbs:       0.00e+00    0.00e+00    0.00e+00    0.00e+00
Cgsov:     4.24e-16    4.24e-16    3.91e-16    3.91e-16
Cgdov:     4.24e-16    4.24e-16    3.91e-16    3.91e-16
Cgbov:     1.46e-19    1.46e-19    1.21e-19    1.21e-19
dQgdVgb:   1.03e-15    1.03e-15    1.29e-15    1.29e-15
dQgdVdb:  -4.24e-16   -4.24e-16   -6.35e-16   -6.35e-16
dQgdVsb:  -4.24e-16   -4.24e-16   -6.63e-16   -6.63e-16
dQddVgb:  -4.24e-16   -4.24e-16   -6.46e-16   -6.46e-16
dQddVdb:   4.24e-16    4.24e-16    6.90e-16    6.90e-16
dQddVsb:   5.85e-22    2.03e-21    3.68e-17    3.68e-17
dQbdVgb:  -1.85e-16   -1.79e-16   -1.08e-18   -1.08e-18
dQbdVdb:   1.26e-24   -5.90e-23   -3.55e-16   -3.55e-16
dQbdVsb:   5.98e-21    5.37e-21    1.98e-16    1.98e-16



Date: Fri Mar 29 15:53:19 2024
Total elapsed time: 0.041 seconds.

tnom = 27
temp = 27
method = trap
totiter = 13
traniter = 0
tranpoints = 0
accept = 0
rejected = 0
matrix size = 8
fillins = 0
solver = Normal
Avg thread counts: 8.0/0.0/8.0/8.0
Matrix Compiler1: 282 bytes object code size
Matrix Compiler2: 648 bytes object code size
